
T1418 000:033 SEGGER J-Link V6.12a Log File (0001ms, 0018ms total)
T1418 000:033 DLL Compiled: Dec  2 2016 16:44:26 (0001ms, 0018ms total)
T1418 000:033 Logging started @ 2016-12-11 17:48 (0001ms, 0018ms total)
T1418 000:034 JLINK_SetWarnOutHandler(...) (0000ms, 0018ms total)
T1418 000:034 JLINK_OpenEx(...)
Firmware: J-Link ARM V8 compiled Nov 28 2014 13:44:46
Hardware: V8.00
S/N: 263001882
OEM: SEGGER-EDU
Feature(s): FlashBP, GDBWEBSRV Webserver running on local port 19080 (0009ms, 0027ms total)
T1418 000:034   returns O.K. (0009ms, 0027ms total)
T1418 000:043 JLINK_SetErrorOutHandler(...) (0000ms, 0027ms total)
T1418 000:043 JLINK_ExecCommand("ProjectFile = "C:\Projecten\DieBieSlave\Github\Firmware\DieBieSlave\MDK-ARM\JLinkSettings.ini"", ...). C:\Program Files (x86)\SEGGER\JLink_V612a\JLinkDevices.xml evaluated successfully.  returns 0x00 (0107ms, 0134ms total)
T1418 000:150 JLINK_ExecCommand("Device = STM32F303RE", ...). Device "STM32F303RE" selected.  returns 0x00 (0000ms, 0134ms total)
T1418 000:150 JLINK_ExecCommand("DisableConnectionTimeout", ...).   returns 0x01 (0000ms, 0134ms total)
T1418 000:150 JLINK_GetHardwareVersion()  returns 0x13880 (0000ms, 0134ms total)
T1418 000:150 JLINK_GetDLLVersion()  returns 61201 (0000ms, 0134ms total)
T1418 000:150 JLINK_GetDLLVersion()  returns 61201 (0000ms, 0134ms total)
T1418 000:150 JLINK_GetCompileDateTime() (0000ms, 0134ms total)
T1418 000:150 JLINK_GetFirmwareString(...) (0000ms, 0134ms total)
T1418 000:150 JLINK_GetHardwareVersion()  returns 0x13880 (0000ms, 0134ms total)
T1418 000:150 JLINK_TIF_Select(JLINKARM_TIF_SWD)  returns 0x00 (0001ms, 0135ms total)
T1418 000:151 JLINK_SetSpeed(25000) (0000ms, 0135ms total)
T1418 000:151 JLINK_GetId() >0x108 TIF>Found SWD-DP with ID 0x2BA01477 >0x0D TIF> >0x28 TIF> >0x0D TIF> >0x28 TIF> >0x0D TIF> >0x28 TIF> >0x0D TIF> >0x28 TIF> >0x0D TIF> >0x21 TIF> >0x0D TIF> >0x28 TIF> >0x0D TIF> >0x28 TIF> >0x0D TIF> >0x28 TIF> >0x0D TIF> >0x21 TIF> >0x0D TIF> >0x21 TIF> >0x0D TIF> >0x28 TIF> >0x0D TIF> >0x21 TIF> >0x0D TIF> >0x21 TIF> >0x0D TIF> >0x28 TIF> >0x0D TIF> >0x21 TIF> >0x0D TIF> >0x21 TIF> >0x0D TIF> >0x28 TIF> >0x0D TIF> >0x21 TIF> >0x0D TIF> >0x21 TIF> >0x0D TIF>
 >0x28 TIF> >0x0D TIF> >0x21 TIF> >0x0D TIF> >0x21 TIF> >0x0D TIF> >0x28 TIF> >0x0D TIF> >0x21 TIF> >0x0D TIF> >0x21 TIF> >0x0D TIF> >0x28 TIF> >0x0D TIF> >0x21 TIF> >0x0D TIF> >0x21 TIF> >0x0D TIF> >0x28 TIF> >0x0D TIF> >0x21 TIF> >0x0D TIF> >0x21 TIF> >0x108 TIF>Found SWD-DP with ID 0x2BA01477 >0x0D TIF> >0x28 TIF> >0x0D TIF> >0x28 TIF> >0x0D TIF> >0x28 TIF> >0x0D TIF> >0x28 TIF> >0x0D TIF> >0x21 TIF> >0x0D TIF> >0x28 TIF> >0x0D TIF> >0x28 TIF> >0x0D TIF> >0x21 TIF> >0x0D TIF> >0x21 TIF> >0x0D TIF>
 >0x21 TIF>AP-IDR: 0x24770011, Type: AHB-AP >0x0D TIF> >0x28 TIF> >0x0D TIF> >0x28 TIF> >0x0D TIF> >0x28 TIF> >0x0D TIF> >0x21 TIF> >0x0D TIF> >0x21 TIF> >0x0D TIF> >0x28 TIF> >0x0D TIF> >0x21 TIF> >0x0D TIF> >0x21 TIF>Found Cortex-M4 r0p1, Little endian. -- CPU_ReadMem(4 bytes @ 0xE000EDF0) -- CPU_ReadMem(4 bytes @ 0xE0002000)FPUnit: 6 code (BP) slots and 2 literal slots -- CPU_ReadMem(4 bytes @ 0xE000EDFC) -- CPU_ReadMem(4 bytes @ 0xE0001000) -- CPU_WriteMem(4 bytes @ 0xE0001000)
 -- CPU_ReadMem(4 bytes @ 0xE000ED88) -- CPU_WriteMem(4 bytes @ 0xE000ED88) -- CPU_ReadMem(4 bytes @ 0xE000ED88) -- CPU_WriteMem(4 bytes @ 0xE000ED88)CoreSight components:ROMTbl 0 @ E00FF000 -- CPU_ReadMem(16 bytes @ 0xE00FF000) -- CPU_ReadMem(16 bytes @ 0xE000EFF0) -- CPU_ReadMem(16 bytes @ 0xE000EFE0)ROMTbl 0 [0]: FFF0F000, CID: B105E00D, PID: 000BB00C SCS -- CPU_ReadMem(16 bytes @ 0xE0001FF0) -- CPU_ReadMem(16 bytes @ 0xE0001FE0)ROMTbl 0 [1]: FFF02000, CID: B105E00D, PID: 003BB002 DWT
 -- CPU_ReadMem(16 bytes @ 0xE0002FF0) -- CPU_ReadMem(16 bytes @ 0xE0002FE0)ROMTbl 0 [2]: FFF03000, CID: B105E00D, PID: 002BB003 FPB -- CPU_ReadMem(16 bytes @ 0xE0000FF0) -- CPU_ReadMem(16 bytes @ 0xE0000FE0)ROMTbl 0 [3]: FFF01000, CID: B105E00D, PID: 003BB001 ITM -- CPU_ReadMem(16 bytes @ 0xE00FF010) -- CPU_ReadMem(16 bytes @ 0xE0040FF0) -- CPU_ReadMem(16 bytes @ 0xE0040FE0)ROMTbl 0 [4]: FFF41000, CID: B105900D, PID: 000BB9A1 TPIU -- CPU_ReadMem(16 bytes @ 0xE0041FF0)
 -- CPU_ReadMem(16 bytes @ 0xE0041FE0)ROMTbl 0 [5]: FFF42000, CID: B105900D, PID: 000BB925 ETM -- CPU is running -- CPU_WriteMem(4 bytes @ 0xE000EDF0) -- CPU is running -- CPU_WriteMem(4 bytes @ 0xE000EDFC) >0x35 TIF> -- CPU is running -- CPU_WriteMem(4 bytes @ 0xE000ED0C) -- CPU is running -- CPU_ReadMem(4 bytes @ 0xE000EDF0) -- CPU is running -- CPU_ReadMem(4 bytes @ 0xE000EDF0) -- CPU is running -- CPU_WriteMem(4 bytes @ 0xE000EDF0) -- CPU is running -- CPU_WriteMem(4 bytes @ 0xE000EDFC)
 -- CPU is running -- CPU_ReadMem(4 bytes @ 0xE000EDF0) -- CPU_WriteMem(4 bytes @ 0xE0002000) -- CPU_ReadMem(4 bytes @ 0xE000EDFC) -- CPU_ReadMem(4 bytes @ 0xE0001000) -- CPU_WriteMem(65536 bytes @ 0x20000000) >0x0D TIF> >0x21 TIF>  returns 0x2BA01477 (0429ms, 0564ms total)
T1418 000:580 JLINK_GetDLLVersion()  returns 61201 (0000ms, 0564ms total)
T1418 000:580 JLINK_CORE_GetFound()  returns 0xE0000FF (0000ms, 0564ms total)
T1418 000:580 JLINK_GetDebugInfo(0x100) -- Value=0xE00FF000  returns 0x00 (0000ms, 0564ms total)
T1418 000:580 JLINK_GetDebugInfo(0x100) -- Value=0xE00FF000  returns 0x00 (0000ms, 0564ms total)
T1418 000:580 JLINK_GetDebugInfo(0x101) -- Value=0xE0041000  returns 0x00 (0000ms, 0564ms total)
T1418 000:580 JLINK_GetDebugInfo(0x102) -- Value=0x00000000  returns 0x00 (0000ms, 0564ms total)
T1418 000:580 JLINK_GetDebugInfo(0x103) -- Value=0xE0040000  returns 0x00 (0000ms, 0564ms total)
T1418 000:580 JLINK_GetDebugInfo(0x104) -- Value=0xE0000000  returns 0x00 (0000ms, 0564ms total)
T1418 000:580 JLINK_GetDebugInfo(0x105) -- Value=0xE0001000  returns 0x00 (0001ms, 0565ms total)
T1418 000:581 JLINK_GetDebugInfo(0x106) -- Value=0xE0002000  returns 0x00 (0000ms, 0565ms total)
T1418 000:581 JLINK_GetDebugInfo(0x107) -- Value=0xE000E000  returns 0x00 (0000ms, 0565ms total)
T1418 000:581 JLINK_GetDebugInfo(0x10C) -- Value=0xE000EDF0  returns 0x00 (0000ms, 0565ms total)
T1418 000:581 JLINK_ReadMemU32(0xE000EF40, 0x0001 Items, ...) -- CPU_ReadMem(4 bytes @ 0xE000EF40) - Data: 21 00 11 10  returns 0x01 (0000ms, 0565ms total)
T1418 000:581 JLINK_ReadMemU32(0xE000EF44, 0x0001 Items, ...) -- CPU_ReadMem(4 bytes @ 0xE000EF44) - Data: 11 00 00 11  returns 0x01 (0000ms, 0565ms total)
T1418 000:581 JLINK_ReadMemU32(0xE000ED00, 0x0001 Items, ...) -- CPU_ReadMem(4 bytes @ 0xE000ED00) - Data: 41 C2 0F 41  returns 0x01 (0001ms, 0566ms total)
T1418 000:582 JLINK_SetResetType(JLINKARM_CM3_RESET_TYPE_NORMAL)  returns JLINKARM_CM3_RESET_TYPE_NORMAL (0000ms, 0566ms total)
T1418 000:582 JLINK_Reset() -- CPU_WriteMem(4 bytes @ 0xE000EDF0) -- CPU_WriteMem(4 bytes @ 0xE000EDFC) >0x35 TIF> -- CPU_WriteMem(4 bytes @ 0xE000ED0C) -- CPU_ReadMem(4 bytes @ 0xE000EDF0) -- CPU_ReadMem(4 bytes @ 0xE000EDF0) -- CPU_WriteMem(4 bytes @ 0xE000EDF0) -- CPU_WriteMem(4 bytes @ 0xE000EDFC) -- CPU is running -- CPU_ReadMem(4 bytes @ 0xE000EDF0) -- CPU_WriteMem(4 bytes @ 0xE0002000) -- CPU_ReadMem(4 bytes @ 0xE000EDFC) -- CPU_ReadMem(4 bytes @ 0xE0001000) (0016ms, 0582ms total)
T1418 000:598 JLINK_ReadReg(R15 (PC))  returns 0x080001A8 (0000ms, 0582ms total)
T1418 000:598 JLINK_ReadReg(XPSR)  returns 0x01000000 (0000ms, 0582ms total)
T1418 000:598 JLINK_Halt()  returns 0x00 (0000ms, 0582ms total)
T1418 000:598 JLINK_IsHalted()  returns TRUE (0000ms, 0582ms total)
T1418 000:598 JLINK_ReadMemU32(0xE000EDF0, 0x0001 Items, ...) -- CPU_ReadMem(4 bytes @ 0xE000EDF0) - Data: 03 00 03 00  returns 0x01 (0001ms, 0583ms total)
T1418 000:599 JLINK_WriteU32(0xE000EDF0, 0xA05F0003) -- CPU_WriteMem(4 bytes @ 0xE000EDF0)  returns 0x00 (0000ms, 0583ms total)
T1418 000:599 JLINK_WriteU32(0xE000EDFC, 0x01000000) -- CPU_WriteMem(4 bytes @ 0xE000EDFC)  returns 0x00 (0001ms, 0584ms total)
T1418 000:600 JLINK_GetHWStatus(...)  returns 0x00 (0000ms, 0584ms total)
T1418 000:600 JLINK_GetNumBPUnits(Type = 0xFFFFFF00)  returns 0x06 (0000ms, 0584ms total)
T1418 000:600 JLINK_GetNumBPUnits(Type = 0xF0)  returns 0x2000 (0000ms, 0584ms total)
T1418 000:600 JLINK_GetNumWPUnits()  returns 0x04 (0000ms, 0584ms total)
T1418 000:600 JLINK_GetSpeed()  returns 0xFA0 (0000ms, 0584ms total)
T1418 000:600 JLINK_ReadMemU32(0xE000E004, 0x0001 Items, ...) -- CPU_ReadMem(4 bytes @ 0xE000E004) - Data: 02 00 00 00  returns 0x01 (0000ms, 0584ms total)
T1418 000:600 JLINK_ReadMemU32(0xE000E004, 0x0001 Items, ...) -- CPU_ReadMem(4 bytes @ 0xE000E004) - Data: 02 00 00 00  returns 0x01 (0001ms, 0585ms total)
T1418 000:601 JLINK_WriteMem(0xE0001000, 0x001C Bytes, ...) - Data: 01 00 00 00 00 00 00 00 00 00 00 00 00 00 00 00 ... -- CPU_WriteMem(28 bytes @ 0xE0001000)  returns 0x1C (0001ms, 0586ms total)
T1418 000:602 JLINK_ReadMem (0xE0001000, 0x001C Bytes, ...) -- CPU_ReadMem(28 bytes @ 0xE0001000) - Data: 01 00 00 40 00 00 00 00 00 00 00 00 00 00 00 00 ...  returns 0x00 (0000ms, 0586ms total)
T1418 000:602 JLINK_ReadReg(R15 (PC))  returns 0x080001A8 (0000ms, 0586ms total)
T1418 000:602 JLINK_ReadReg(XPSR)  returns 0x01000000 (0000ms, 0586ms total)
T1418 000:696 JLINK_SetResetType(JLINKARM_CM3_RESET_TYPE_NORMAL)  returns JLINKARM_CM3_RESET_TYPE_NORMAL (0000ms, 0586ms total)
T1418 000:696 JLINK_Reset() -- CPU_WriteMem(4 bytes @ 0xE000EDF0) -- CPU_WriteMem(4 bytes @ 0xE000EDFC) >0x35 TIF> -- CPU_WriteMem(4 bytes @ 0xE000ED0C) -- CPU_ReadMem(4 bytes @ 0xE000EDF0) -- CPU_ReadMem(4 bytes @ 0xE000EDF0) -- CPU_WriteMem(4 bytes @ 0xE000EDF0) -- CPU_WriteMem(4 bytes @ 0xE000EDFC) -- CPU is running -- CPU_ReadMem(4 bytes @ 0xE000EDF0) -- CPU_WriteMem(4 bytes @ 0xE0002000) -- CPU_ReadMem(4 bytes @ 0xE000EDFC) -- CPU_ReadMem(4 bytes @ 0xE0001000) (0015ms, 0601ms total)
T1418 000:711 JLINK_ReadReg(R15 (PC))  returns 0x080001A8 (0000ms, 0601ms total)
T1418 000:711 JLINK_ReadReg(XPSR)  returns 0x01000000 (0000ms, 0601ms total)
T1418 000:796 JLINK_ReadMem (0x08000194, 0x003C Bytes, ...) -- CPU_ReadMem(128 bytes @ 0x08000180) -- Updating C cache (128 bytes @ 0x08000180) -- Read from C cache (60 bytes @ 0x08000194) - Data: DF F8 0C D0 00 F0 3C F8 00 48 00 47 79 2A 00 08 ...  returns 0x00 (0002ms, 0603ms total)
T1664 001:628 JLINK_SetBPEx(Addr = 0x08002A78, Type = 0xFFFFFFF2)  returns 0x00000001 (0000ms, 0603ms total)
T1664 001:628 JLINK_SetBPEx(Addr = 0x08002AB0, Type = 0xFFFFFFF2)  returns 0x00000002 (0000ms, 0603ms total)
T1664 001:628 JLINK_Go() -- CPU_WriteMem(4 bytes @ 0xE0002000) -- CPU_WriteMem(4 bytes @ 0xE0002000) -- CPU_ReadMem(4 bytes @ 0xE0001000) -- CPU_WriteMem(4 bytes @ 0xE0002008) -- CPU_WriteMem(4 bytes @ 0xE000200C) -- CPU_WriteMem(4 bytes @ 0xE0002010) -- CPU_WriteMem(4 bytes @ 0xE0002014) -- CPU_WriteMem(4 bytes @ 0xE0002018) -- CPU_WriteMem(4 bytes @ 0xE000201C) -- CPU_WriteMem(4 bytes @ 0xE0001004) (0005ms, 0608ms total)
T1664 001:733 JLINK_IsHalted()  returns TRUE (0002ms, 0610ms total)
T1664 001:735 JLINK_Halt()  returns 0x00 (0000ms, 0608ms total)
T1664 001:735 JLINK_IsHalted()  returns TRUE (0000ms, 0608ms total)
T1664 001:735 JLINK_IsHalted()  returns TRUE (0000ms, 0608ms total)
T1664 001:735 JLINK_IsHalted()  returns TRUE (0000ms, 0608ms total)
T1664 001:735 JLINK_ReadReg(R15 (PC))  returns 0x08002A78 (0000ms, 0608ms total)
T1664 001:735 JLINK_ReadReg(XPSR)  returns 0x61000000 (0000ms, 0608ms total)
T1664 001:735 JLINK_ClrBPEx(BPHandle = 0x00000001)  returns 0x00 (0000ms, 0608ms total)
T1664 001:735 JLINK_ClrBPEx(BPHandle = 0x00000002)  returns 0x00 (0000ms, 0608ms total)
T1664 001:735 JLINK_ReadMemU32(0xE000ED30, 0x0001 Items, ...) -- CPU_ReadMem(4 bytes @ 0xE000ED30) - Data: 03 00 00 00  returns 0x01 (0001ms, 0609ms total)
T1664 001:736 JLINK_ReadMemU32(0xE0001028, 0x0001 Items, ...) -- CPU_ReadMem(4 bytes @ 0xE0001028) - Data: 00 00 00 00  returns 0x01 (0001ms, 0610ms total)
T1664 001:737 JLINK_ReadMemU32(0xE0001038, 0x0001 Items, ...) -- CPU_ReadMem(4 bytes @ 0xE0001038) - Data: 00 02 00 00  returns 0x01 (0000ms, 0610ms total)
T1664 001:737 JLINK_ReadMemU32(0xE0001048, 0x0001 Items, ...) -- CPU_ReadMem(4 bytes @ 0xE0001048) - Data: 00 00 00 00  returns 0x01 (0001ms, 0611ms total)
T1664 001:738 JLINK_ReadMemU32(0xE0001058, 0x0001 Items, ...) -- CPU_ReadMem(4 bytes @ 0xE0001058) - Data: 00 00 00 00  returns 0x01 (0000ms, 0611ms total)
T1664 001:738 JLINK_ReadReg(R0)  returns 0x08002A79 (0000ms, 0611ms total)
T1664 001:738 JLINK_ReadReg(R1)  returns 0x20000C80 (0000ms, 0611ms total)
T1664 001:738 JLINK_ReadReg(R2)  returns 0x00000000 (0000ms, 0611ms total)
T1664 001:738 JLINK_ReadReg(R3)  returns 0x0800288F (0000ms, 0611ms total)
T1664 001:738 JLINK_ReadReg(R4)  returns 0x08002D78 (0000ms, 0611ms total)
T1664 001:738 JLINK_ReadReg(R5)  returns 0x08002D78 (0000ms, 0611ms total)
T1664 001:738 JLINK_ReadReg(R6)  returns 0x00000000 (0000ms, 0611ms total)
T1664 001:738 JLINK_ReadReg(R7)  returns 0x00000000 (0000ms, 0611ms total)
T1664 001:738 JLINK_ReadReg(R8)  returns 0x00000000 (0000ms, 0611ms total)
T1664 001:738 JLINK_ReadReg(R9)  returns 0x00000000 (0000ms, 0611ms total)
T1664 001:738 JLINK_ReadReg(R10)  returns 0x00000000 (0000ms, 0611ms total)
T1664 001:738 JLINK_ReadReg(R11)  returns 0x00000000 (0000ms, 0611ms total)
T1664 001:738 JLINK_ReadReg(R12)  returns 0x00000000 (0001ms, 0612ms total)
T1664 001:739 JLINK_ReadReg(R13 (SP))  returns 0x20000C80 (0000ms, 0612ms total)
T1664 001:739 JLINK_ReadReg(R14)  returns 0x08000231 (0000ms, 0612ms total)
T1664 001:739 JLINK_ReadReg(R15 (PC))  returns 0x08002A78 (0000ms, 0612ms total)
T1664 001:739 JLINK_ReadReg(XPSR)  returns 0x61000000 (0000ms, 0612ms total)
T1664 001:739 JLINK_ReadReg(MSP)  returns 0x20000C80 (0000ms, 0612ms total)
T1664 001:739 JLINK_ReadReg(PSP)  returns 0x00000000 (0000ms, 0612ms total)
T1664 001:739 JLINK_ReadReg(CFBP)  returns 0x00000000 (0000ms, 0612ms total)
T1664 001:739 JLINK_ReadReg(FPSCR)  returns 0x00000000 (0003ms, 0615ms total)
T1664 001:742 JLINK_ReadReg(FPS0)  returns 0x00000000 (0000ms, 0615ms total)
T1664 001:742 JLINK_ReadReg(FPS1)  returns 0x00000000 (0000ms, 0615ms total)
T1664 001:742 JLINK_ReadReg(FPS2)  returns 0x00000000 (0000ms, 0615ms total)
T1664 001:742 JLINK_ReadReg(FPS3)  returns 0x00000000 (0000ms, 0615ms total)
T1664 001:742 JLINK_ReadReg(FPS4)  returns 0x00000000 (0000ms, 0615ms total)
T1664 001:742 JLINK_ReadReg(FPS5)  returns 0x00000000 (0000ms, 0615ms total)
T1664 001:742 JLINK_ReadReg(FPS6)  returns 0x00000000 (0000ms, 0615ms total)
T1664 001:742 JLINK_ReadReg(FPS7)  returns 0x00000000 (0000ms, 0615ms total)
T1664 001:742 JLINK_ReadReg(FPS8)  returns 0x00000000 (0000ms, 0615ms total)
T1664 001:742 JLINK_ReadReg(FPS9)  returns 0x00000000 (0000ms, 0615ms total)
T1664 001:742 JLINK_ReadReg(FPS10)  returns 0x00000000 (0000ms, 0615ms total)
T1664 001:742 JLINK_ReadReg(FPS11)  returns 0x00000000 (0000ms, 0615ms total)
T1664 001:742 JLINK_ReadReg(FPS12)  returns 0x00000000 (0000ms, 0615ms total)
T1664 001:742 JLINK_ReadReg(FPS13)  returns 0x00000000 (0000ms, 0615ms total)
T1664 001:742 JLINK_ReadReg(FPS14)  returns 0x00000000 (0000ms, 0615ms total)
T1664 001:742 JLINK_ReadReg(FPS15)  returns 0x00000000 (0000ms, 0615ms total)
T1664 001:742 JLINK_ReadReg(FPS16)  returns 0x00000000 (0000ms, 0615ms total)
T1664 001:742 JLINK_ReadReg(FPS17)  returns 0x00000000 (0000ms, 0615ms total)
T1664 001:742 JLINK_ReadReg(FPS18)  returns 0x00000000 (0000ms, 0615ms total)
T1664 001:742 JLINK_ReadReg(FPS19)  returns 0x00000000 (0000ms, 0615ms total)
T1664 001:742 JLINK_ReadReg(FPS20)  returns 0x00000000 (0000ms, 0615ms total)
T1664 001:742 JLINK_ReadReg(FPS21)  returns 0x00000000 (0000ms, 0615ms total)
T1664 001:742 JLINK_ReadReg(FPS22)  returns 0x00000000 (0000ms, 0615ms total)
T1664 001:742 JLINK_ReadReg(FPS23)  returns 0x00000000 (0000ms, 0615ms total)
T1664 001:742 JLINK_ReadReg(FPS24)  returns 0x00000000 (0000ms, 0615ms total)
T1664 001:742 JLINK_ReadReg(FPS25)  returns 0x00000000 (0000ms, 0615ms total)
T1664 001:742 JLINK_ReadReg(FPS26)  returns 0x00000000 (0001ms, 0616ms total)
T1664 001:743 JLINK_ReadReg(FPS27)  returns 0x00000000 (0000ms, 0616ms total)
T1664 001:743 JLINK_ReadReg(FPS28)  returns 0x00000000 (0000ms, 0616ms total)
T1664 001:743 JLINK_ReadReg(FPS29)  returns 0x00000000 (0000ms, 0616ms total)
T1664 001:743 JLINK_ReadReg(FPS30)  returns 0x00000000 (0000ms, 0616ms total)
T1664 001:743 JLINK_ReadReg(FPS31)  returns 0x00000000 (0000ms, 0616ms total)
T1418 001:743 JLINK_ReadMem (0x20000C78, 0x0004 Bytes, ...) -- CPU_ReadMem(64 bytes @ 0x20000C40) -- Updating C cache (64 bytes @ 0x20000C40) -- Read from C cache (4 bytes @ 0x20000C78) - Data: 00 00 00 00  returns 0x00 (0001ms, 0617ms total)
T1418 001:744 JLINK_ReadMemU32(0xE0001004, 0x0001 Items, ...) -- CPU_ReadMem(4 bytes @ 0xE0001004) - Data: 86 13 00 00  returns 0x01 (0001ms, 0618ms total)
T1418 001:753 JLINK_ReadMem (0x08002978, 0x003C Bytes, ...) -- CPU_ReadMem(128 bytes @ 0x08002940) -- Updating C cache (128 bytes @ 0x08002940) -- Read from C cache (60 bytes @ 0x08002978) - Data: 90 F8 5D 10 02 29 FB D0 01 22 41 46 48 46 FD F7 ...  returns 0x00 (0001ms, 0619ms total)
T1418 001:754 JLINK_ReadMem (0x080029B4, 0x003C Bytes, ...) -- CPU_ReadMem(64 bytes @ 0x080029C0) -- Updating C cache (64 bytes @ 0x080029C0) -- Read from C cache (60 bytes @ 0x080029B4) - Data: 00 EB 40 03 04 48 0A 46 00 EB 83 01 50 F8 23 00 ...  returns 0x00 (0001ms, 0620ms total)
T1418 001:755 JLINK_ReadMem (0x080029F0, 0x003C Bytes, ...) -- CPU_ReadMem(64 bytes @ 0x08002A00) -- Updating C cache (64 bytes @ 0x08002A00) -- Read from C cache (60 bytes @ 0x080029F0) - Data: 4B 68 1A 43 72 61 CD F8 04 80 89 68 CD E9 02 79 ...  returns 0x00 (0001ms, 0621ms total)
T1418 001:756 JLINK_ReadMem (0x08002A2C, 0x003C Bytes, ...) -- CPU_ReadMem(64 bytes @ 0x08002A40) -- Updating C cache (64 bytes @ 0x08002A40) -- Read from C cache (60 bytes @ 0x08002A2C) - Data: 21 D0 11 4B 00 22 00 1F 19 68 03 E0 81 42 03 D8 ...  returns 0x00 (0001ms, 0622ms total)
T1418 001:757 JLINK_ReadMem (0x08002A68, 0x003C Bytes, ...) -- CPU_ReadMem(64 bytes @ 0x08002A80) -- Updating C cache (64 bytes @ 0x08002A80) -- Read from C cache (60 bytes @ 0x08002A68) - Data: 0B 68 1A 44 02 60 49 68 41 60 10 BD 4C 00 00 20 ...  returns 0x00 (0001ms, 0623ms total)
T1664 003:424 JLINK_SetBPEx(Addr = 0x08002AB0, Type = 0xFFFFFFF2)  returns 0x00000003 (0000ms, 0623ms total)
T1664 003:424 JLINK_Go() -- CPU_WriteMem(4 bytes @ 0xE0002000) -- CPU_ReadMem(4 bytes @ 0xE0001000) -- CPU_WriteMem(4 bytes @ 0xE0002008) -- CPU_WriteMem(4 bytes @ 0xE000200C) (0003ms, 0626ms total)
T1664 003:527 JLINK_IsHalted()  returns TRUE (0003ms, 0629ms total)
T1664 003:530 JLINK_Halt()  returns 0x00 (0000ms, 0626ms total)
T1664 003:530 JLINK_IsHalted()  returns TRUE (0000ms, 0626ms total)
T1664 003:530 JLINK_IsHalted()  returns TRUE (0000ms, 0626ms total)
T1664 003:530 JLINK_IsHalted()  returns TRUE (0000ms, 0626ms total)
T1664 003:530 JLINK_ReadReg(R15 (PC))  returns 0x08002AB0 (0000ms, 0626ms total)
T1664 003:530 JLINK_ReadReg(XPSR)  returns 0x21000000 (0000ms, 0626ms total)
T1664 003:530 JLINK_ClrBPEx(BPHandle = 0x00000003)  returns 0x00 (0000ms, 0626ms total)
T1664 003:530 JLINK_ReadMemU32(0xE000ED30, 0x0001 Items, ...) -- CPU_ReadMem(4 bytes @ 0xE000ED30) - Data: 03 00 00 00  returns 0x01 (0000ms, 0626ms total)
T1664 003:530 JLINK_ReadMemU32(0xE0001028, 0x0001 Items, ...) -- CPU_ReadMem(4 bytes @ 0xE0001028) - Data: 00 00 00 00  returns 0x01 (0001ms, 0627ms total)
T1664 003:531 JLINK_ReadMemU32(0xE0001038, 0x0001 Items, ...) -- CPU_ReadMem(4 bytes @ 0xE0001038) - Data: 00 02 00 00  returns 0x01 (0000ms, 0627ms total)
T1664 003:531 JLINK_ReadMemU32(0xE0001048, 0x0001 Items, ...) -- CPU_ReadMem(4 bytes @ 0xE0001048) - Data: 00 00 00 00  returns 0x01 (0000ms, 0627ms total)
T1664 003:532 JLINK_ReadMemU32(0xE0001058, 0x0001 Items, ...) -- CPU_ReadMem(4 bytes @ 0xE0001058) - Data: 00 00 00 00  returns 0x01 (0000ms, 0627ms total)
T1664 003:532 JLINK_ReadReg(R0)  returns 0x00000001 (0000ms, 0627ms total)
T1664 003:532 JLINK_ReadReg(R1)  returns 0x00000000 (0000ms, 0627ms total)
T1664 003:532 JLINK_ReadReg(R2)  returns 0x00000000 (0000ms, 0627ms total)
T1664 003:532 JLINK_ReadReg(R3)  returns 0x00000009 (0000ms, 0627ms total)
T1664 003:532 JLINK_ReadReg(R4)  returns 0x08002D78 (0000ms, 0627ms total)
T1664 003:532 JLINK_ReadReg(R5)  returns 0x08002D78 (0000ms, 0627ms total)
T1664 003:532 JLINK_ReadReg(R6)  returns 0x00000000 (0000ms, 0627ms total)
T1664 003:532 JLINK_ReadReg(R7)  returns 0x00000000 (0000ms, 0627ms total)
T1664 003:532 JLINK_ReadReg(R8)  returns 0x00000000 (0000ms, 0627ms total)
T1664 003:532 JLINK_ReadReg(R9)  returns 0x00000000 (0000ms, 0627ms total)
T1664 003:532 JLINK_ReadReg(R10)  returns 0x00000000 (0000ms, 0627ms total)
T1664 003:532 JLINK_ReadReg(R11)  returns 0x00000000 (0000ms, 0627ms total)
T1664 003:532 JLINK_ReadReg(R12)  returns 0x00000000 (0000ms, 0627ms total)
T1664 003:532 JLINK_ReadReg(R13 (SP))  returns 0x20000C78 (0000ms, 0627ms total)
T1664 003:532 JLINK_ReadReg(R14)  returns 0x08002B7B (0000ms, 0627ms total)
T1664 003:532 JLINK_ReadReg(R15 (PC))  returns 0x08002AB0 (0000ms, 0627ms total)
T1664 003:532 JLINK_ReadReg(XPSR)  returns 0x21000000 (0000ms, 0627ms total)
T1664 003:532 JLINK_ReadReg(MSP)  returns 0x20000C78 (0000ms, 0627ms total)
T1664 003:532 JLINK_ReadReg(PSP)  returns 0x00000000 (0000ms, 0627ms total)
T1664 003:532 JLINK_ReadReg(CFBP)  returns 0x00000000 (0000ms, 0627ms total)
T1664 003:532 JLINK_ReadReg(FPSCR)  returns 0x00000000 (0004ms, 0631ms total)
T1664 003:536 JLINK_ReadReg(FPS0)  returns 0x00000000 (0000ms, 0631ms total)
T1664 003:536 JLINK_ReadReg(FPS1)  returns 0x00000000 (0000ms, 0631ms total)
T1664 003:536 JLINK_ReadReg(FPS2)  returns 0x00000000 (0000ms, 0631ms total)
T1664 003:536 JLINK_ReadReg(FPS3)  returns 0x00000000 (0000ms, 0631ms total)
T1664 003:536 JLINK_ReadReg(FPS4)  returns 0x00000000 (0000ms, 0631ms total)
T1664 003:536 JLINK_ReadReg(FPS5)  returns 0x00000000 (0000ms, 0631ms total)
T1664 003:536 JLINK_ReadReg(FPS6)  returns 0x00000000 (0000ms, 0631ms total)
T1664 003:536 JLINK_ReadReg(FPS7)  returns 0x00000000 (0000ms, 0631ms total)
T1664 003:536 JLINK_ReadReg(FPS8)  returns 0x00000000 (0000ms, 0631ms total)
T1664 003:536 JLINK_ReadReg(FPS9)  returns 0x00000000 (0000ms, 0631ms total)
T1664 003:536 JLINK_ReadReg(FPS10)  returns 0x00000000 (0000ms, 0631ms total)
T1664 003:536 JLINK_ReadReg(FPS11)  returns 0x00000000 (0000ms, 0631ms total)
T1664 003:536 JLINK_ReadReg(FPS12)  returns 0x00000000 (0000ms, 0631ms total)
T1664 003:536 JLINK_ReadReg(FPS13)  returns 0x00000000 (0000ms, 0631ms total)
T1664 003:536 JLINK_ReadReg(FPS14)  returns 0x00000000 (0000ms, 0631ms total)
T1664 003:536 JLINK_ReadReg(FPS15)  returns 0x00000000 (0000ms, 0631ms total)
T1664 003:536 JLINK_ReadReg(FPS16)  returns 0x00000000 (0000ms, 0631ms total)
T1664 003:536 JLINK_ReadReg(FPS17)  returns 0x00000000 (0000ms, 0631ms total)
T1664 003:536 JLINK_ReadReg(FPS18)  returns 0x00000000 (0000ms, 0631ms total)
T1664 003:536 JLINK_ReadReg(FPS19)  returns 0x00000000 (0000ms, 0631ms total)
T1664 003:536 JLINK_ReadReg(FPS20)  returns 0x00000000 (0000ms, 0631ms total)
T1664 003:536 JLINK_ReadReg(FPS21)  returns 0x00000000 (0000ms, 0631ms total)
T1664 003:536 JLINK_ReadReg(FPS22)  returns 0x00000000 (0000ms, 0631ms total)
T1664 003:536 JLINK_ReadReg(FPS23)  returns 0x00000000 (0000ms, 0631ms total)
T1664 003:536 JLINK_ReadReg(FPS24)  returns 0x00000000 (0000ms, 0631ms total)
T1664 003:536 JLINK_ReadReg(FPS25)  returns 0x00000000 (0000ms, 0631ms total)
T1664 003:536 JLINK_ReadReg(FPS26)  returns 0x00000000 (0000ms, 0631ms total)
T1664 003:536 JLINK_ReadReg(FPS27)  returns 0x00000000 (0000ms, 0631ms total)
T1664 003:536 JLINK_ReadReg(FPS28)  returns 0x00000000 (0000ms, 0631ms total)
T1664 003:536 JLINK_ReadReg(FPS29)  returns 0x00000000 (0000ms, 0631ms total)
T1664 003:536 JLINK_ReadReg(FPS30)  returns 0x00000000 (0000ms, 0631ms total)
T1664 003:536 JLINK_ReadReg(FPS31)  returns 0x00000000 (0000ms, 0631ms total)
T1418 003:536 JLINK_ReadMem (0x20000C7C, 0x0004 Bytes, ...) -- CPU_ReadMem(64 bytes @ 0x20000C40) -- Updating C cache (64 bytes @ 0x20000C40) -- Read from C cache (4 bytes @ 0x20000C7C) - Data: 31 02 00 08  returns 0x00 (0001ms, 0632ms total)
T1418 003:537 JLINK_ReadMem (0x20000C78, 0x0004 Bytes, ...) -- Read from C cache (4 bytes @ 0x20000C78) - Data: 00 00 00 00  returns 0x00 (0000ms, 0632ms total)
T1418 003:537 JLINK_ReadMemU32(0xE0001004, 0x0001 Items, ...) -- CPU_ReadMem(4 bytes @ 0xE0001004) - Data: BD 0D 6E 00  returns 0x01 (0001ms, 0633ms total)
T1418 003:541 JLINK_ReadMem (0x08002AA4, 0x003C Bytes, ...) -- CPU_ReadMem(128 bytes @ 0x08002A80) -- Updating C cache (128 bytes @ 0x08002A80) -- Read from C cache (60 bytes @ 0x08002AA4) - Data: 64 21 05 48 00 F0 5C F8 00 28 F7 D0 64 20 FF F7 ...  returns 0x00 (0002ms, 0635ms total)
T1664 004:552 JLINK_Step() -- Read from C cache (2 bytes @ 0x08002AB0) -- CPU_ReadMem(4 bytes @ 0xE000ED18) -- CPU_WriteMem(4 bytes @ 0xE000ED18) -- CPU_ReadMem(4 bytes @ 0xE000ED18) -- CPU_WriteMem(4 bytes @ 0xE000ED18) -- Simulated  returns 0x00 (0003ms, 0638ms total)
T1664 004:555 JLINK_ReadReg(R15 (PC))  returns 0x08002AB2 (0000ms, 0638ms total)
T1664 004:555 JLINK_ReadReg(XPSR)  returns 0x21000000 (0000ms, 0638ms total)
T1664 004:555 JLINK_SetBPEx(Addr = 0x08002AB0, Type = 0xFFFFFFF2)  returns 0x00000004 (0000ms, 0638ms total)
T1664 004:555 JLINK_Go() -- CPU_WriteMem(4 bytes @ 0xE0002000) -- CPU_ReadMem(4 bytes @ 0xE0001000) -- CPU_WriteMem(4 bytes @ 0xE0001004) (0002ms, 0640ms total)
T1664 004:657 JLINK_IsHalted()  returns TRUE (0003ms, 0643ms total)
T1664 004:660 JLINK_Halt()  returns 0x00 (0000ms, 0640ms total)
T1664 004:660 JLINK_IsHalted()  returns TRUE (0000ms, 0640ms total)
T1664 004:660 JLINK_IsHalted()  returns TRUE (0000ms, 0640ms total)
T1664 004:660 JLINK_IsHalted()  returns TRUE (0000ms, 0640ms total)
T1664 004:660 JLINK_ReadReg(R15 (PC))  returns 0x08002AB0 (0000ms, 0640ms total)
T1664 004:660 JLINK_ReadReg(XPSR)  returns 0x21000000 (0000ms, 0640ms total)
T1664 004:660 JLINK_ClrBPEx(BPHandle = 0x00000004)  returns 0x00 (0000ms, 0640ms total)
T1664 004:660 JLINK_ReadMemU32(0xE000ED30, 0x0001 Items, ...) -- CPU_ReadMem(4 bytes @ 0xE000ED30) - Data: 03 00 00 00  returns 0x01 (0000ms, 0640ms total)
T1664 004:660 JLINK_ReadMemU32(0xE0001028, 0x0001 Items, ...) -- CPU_ReadMem(4 bytes @ 0xE0001028) - Data: 00 00 00 00  returns 0x01 (0001ms, 0641ms total)
T1664 004:661 JLINK_ReadMemU32(0xE0001038, 0x0001 Items, ...) -- CPU_ReadMem(4 bytes @ 0xE0001038) - Data: 00 02 00 00  returns 0x01 (0000ms, 0641ms total)
T1664 004:661 JLINK_ReadMemU32(0xE0001048, 0x0001 Items, ...) -- CPU_ReadMem(4 bytes @ 0xE0001048) - Data: 00 00 00 00  returns 0x01 (0001ms, 0642ms total)
T1664 004:662 JLINK_ReadMemU32(0xE0001058, 0x0001 Items, ...) -- CPU_ReadMem(4 bytes @ 0xE0001058) - Data: 00 00 00 00  returns 0x01 (0000ms, 0642ms total)
T1664 004:662 JLINK_ReadReg(R0)  returns 0x00000001 (0000ms, 0642ms total)
T1664 004:662 JLINK_ReadReg(R1)  returns 0x00000064 (0000ms, 0642ms total)
T1664 004:662 JLINK_ReadReg(R2)  returns 0x00000000 (0000ms, 0642ms total)
T1664 004:662 JLINK_ReadReg(R3)  returns 0x00000009 (0000ms, 0642ms total)
T1664 004:662 JLINK_ReadReg(R4)  returns 0x08002D78 (0000ms, 0642ms total)
T1664 004:662 JLINK_ReadReg(R5)  returns 0x08002D78 (0000ms, 0642ms total)
T1664 004:662 JLINK_ReadReg(R6)  returns 0x00000000 (0000ms, 0642ms total)
T1664 004:662 JLINK_ReadReg(R7)  returns 0x00000000 (0000ms, 0642ms total)
T1664 004:662 JLINK_ReadReg(R8)  returns 0x00000000 (0000ms, 0642ms total)
T1664 004:662 JLINK_ReadReg(R9)  returns 0x00000000 (0000ms, 0642ms total)
T1664 004:662 JLINK_ReadReg(R10)  returns 0x00000000 (0000ms, 0642ms total)
T1664 004:662 JLINK_ReadReg(R11)  returns 0x00000000 (0000ms, 0642ms total)
T1664 004:662 JLINK_ReadReg(R12)  returns 0x00000000 (0000ms, 0642ms total)
T1664 004:662 JLINK_ReadReg(R13 (SP))  returns 0x20000C78 (0000ms, 0642ms total)
T1664 004:662 JLINK_ReadReg(R14)  returns 0x08002B7B (0000ms, 0642ms total)
T1664 004:662 JLINK_ReadReg(R15 (PC))  returns 0x08002AB0 (0001ms, 0643ms total)
T1664 004:663 JLINK_ReadReg(XPSR)  returns 0x21000000 (0000ms, 0643ms total)
T1664 004:663 JLINK_ReadReg(MSP)  returns 0x20000C78 (0000ms, 0643ms total)
T1664 004:663 JLINK_ReadReg(PSP)  returns 0x00000000 (0000ms, 0643ms total)
T1664 004:663 JLINK_ReadReg(CFBP)  returns 0x00000000 (0000ms, 0643ms total)
T1664 004:663 JLINK_ReadReg(FPSCR)  returns 0x00000000 (0003ms, 0646ms total)
T1664 004:666 JLINK_ReadReg(FPS0)  returns 0x00000000 (0000ms, 0646ms total)
T1664 004:666 JLINK_ReadReg(FPS1)  returns 0x00000000 (0000ms, 0646ms total)
T1664 004:666 JLINK_ReadReg(FPS2)  returns 0x00000000 (0000ms, 0646ms total)
T1664 004:666 JLINK_ReadReg(FPS3)  returns 0x00000000 (0000ms, 0646ms total)
T1664 004:666 JLINK_ReadReg(FPS4)  returns 0x00000000 (0000ms, 0646ms total)
T1664 004:666 JLINK_ReadReg(FPS5)  returns 0x00000000 (0000ms, 0646ms total)
T1664 004:666 JLINK_ReadReg(FPS6)  returns 0x00000000 (0000ms, 0646ms total)
T1664 004:666 JLINK_ReadReg(FPS7)  returns 0x00000000 (0000ms, 0646ms total)
T1664 004:666 JLINK_ReadReg(FPS8)  returns 0x00000000 (0000ms, 0646ms total)
T1664 004:666 JLINK_ReadReg(FPS9)  returns 0x00000000 (0000ms, 0646ms total)
T1664 004:666 JLINK_ReadReg(FPS10)  returns 0x00000000 (0000ms, 0646ms total)
T1664 004:666 JLINK_ReadReg(FPS11)  returns 0x00000000 (0000ms, 0646ms total)
T1664 004:666 JLINK_ReadReg(FPS12)  returns 0x00000000 (0000ms, 0646ms total)
T1664 004:666 JLINK_ReadReg(FPS13)  returns 0x00000000 (0000ms, 0646ms total)
T1664 004:666 JLINK_ReadReg(FPS14)  returns 0x00000000 (0000ms, 0646ms total)
T1664 004:666 JLINK_ReadReg(FPS15)  returns 0x00000000 (0000ms, 0646ms total)
T1664 004:666 JLINK_ReadReg(FPS16)  returns 0x00000000 (0000ms, 0646ms total)
T1664 004:666 JLINK_ReadReg(FPS17)  returns 0x00000000 (0000ms, 0646ms total)
T1664 004:666 JLINK_ReadReg(FPS18)  returns 0x00000000 (0000ms, 0646ms total)
T1664 004:666 JLINK_ReadReg(FPS19)  returns 0x00000000 (0000ms, 0646ms total)
T1664 004:666 JLINK_ReadReg(FPS20)  returns 0x00000000 (0000ms, 0646ms total)
T1664 004:666 JLINK_ReadReg(FPS21)  returns 0x00000000 (0000ms, 0646ms total)
T1664 004:666 JLINK_ReadReg(FPS22)  returns 0x00000000 (0000ms, 0646ms total)
T1664 004:666 JLINK_ReadReg(FPS23)  returns 0x00000000 (0000ms, 0646ms total)
T1664 004:666 JLINK_ReadReg(FPS24)  returns 0x00000000 (0000ms, 0646ms total)
T1664 004:667 JLINK_ReadReg(FPS25)  returns 0x00000000 (0000ms, 0647ms total)
T1664 004:667 JLINK_ReadReg(FPS26)  returns 0x00000000 (0000ms, 0647ms total)
T1664 004:667 JLINK_ReadReg(FPS27)  returns 0x00000000 (0000ms, 0647ms total)
T1664 004:667 JLINK_ReadReg(FPS28)  returns 0x00000000 (0000ms, 0647ms total)
T1664 004:667 JLINK_ReadReg(FPS29)  returns 0x00000000 (0000ms, 0647ms total)
T1664 004:667 JLINK_ReadReg(FPS30)  returns 0x00000000 (0000ms, 0647ms total)
T1664 004:667 JLINK_ReadReg(FPS31)  returns 0x00000000 (0000ms, 0647ms total)
T1418 004:667 JLINK_ReadMem (0x20000C7C, 0x0004 Bytes, ...) -- CPU_ReadMem(64 bytes @ 0x20000C40) -- Updating C cache (64 bytes @ 0x20000C40) -- Read from C cache (4 bytes @ 0x20000C7C) - Data: 31 02 00 08  returns 0x00 (0001ms, 0648ms total)
T1418 004:668 JLINK_ReadMem (0x20000C78, 0x0004 Bytes, ...) -- Read from C cache (4 bytes @ 0x20000C78) - Data: 21 43 65 87  returns 0x00 (0000ms, 0648ms total)
T1418 004:668 JLINK_ReadMemU32(0xE0001004, 0x0001 Items, ...) -- CPU_ReadMem(4 bytes @ 0xE0001004) - Data: 48 EA DB 00  returns 0x01 (0000ms, 0648ms total)
T1664 004:968 JLINK_Step() -- CPU_ReadMem(64 bytes @ 0x08002A80) -- Updating C cache (64 bytes @ 0x08002A80) -- Read from C cache (2 bytes @ 0x08002AB0) -- Simulated  returns 0x00 (0001ms, 0649ms total)
T1664 004:969 JLINK_ReadReg(R15 (PC))  returns 0x08002AB2 (0000ms, 0649ms total)
T1664 004:969 JLINK_ReadReg(XPSR)  returns 0x21000000 (0000ms, 0649ms total)
T1664 004:969 JLINK_SetBPEx(Addr = 0x08002AB0, Type = 0xFFFFFFF2)  returns 0x00000005 (0000ms, 0649ms total)
T1664 004:969 JLINK_Go() -- CPU_WriteMem(4 bytes @ 0xE0002000) -- CPU_ReadMem(4 bytes @ 0xE0001000) -- CPU_WriteMem(4 bytes @ 0xE0001004) (0002ms, 0651ms total)
T1664 005:072 JLINK_IsHalted()  returns TRUE (0002ms, 0653ms total)
T1664 005:074 JLINK_Halt()  returns 0x00 (0000ms, 0651ms total)
T1664 005:074 JLINK_IsHalted()  returns TRUE (0000ms, 0651ms total)
T1664 005:074 JLINK_IsHalted()  returns TRUE (0000ms, 0651ms total)
T1664 005:074 JLINK_IsHalted()  returns TRUE (0000ms, 0651ms total)
T1664 005:074 JLINK_ReadReg(R15 (PC))  returns 0x08002AB0 (0000ms, 0651ms total)
T1664 005:074 JLINK_ReadReg(XPSR)  returns 0x21000000 (0000ms, 0651ms total)
T1664 005:074 JLINK_ClrBPEx(BPHandle = 0x00000005)  returns 0x00 (0000ms, 0651ms total)
T1664 005:074 JLINK_ReadMemU32(0xE000ED30, 0x0001 Items, ...) -- CPU_ReadMem(4 bytes @ 0xE000ED30) - Data: 03 00 00 00  returns 0x01 (0000ms, 0651ms total)
T1664 005:074 JLINK_ReadMemU32(0xE0001028, 0x0001 Items, ...) -- CPU_ReadMem(4 bytes @ 0xE0001028) - Data: 00 00 00 00  returns 0x01 (0001ms, 0652ms total)
T1664 005:075 JLINK_ReadMemU32(0xE0001038, 0x0001 Items, ...) -- CPU_ReadMem(4 bytes @ 0xE0001038) - Data: 00 02 00 00  returns 0x01 (0000ms, 0652ms total)
T1664 005:075 JLINK_ReadMemU32(0xE0001048, 0x0001 Items, ...) -- CPU_ReadMem(4 bytes @ 0xE0001048) - Data: 00 00 00 00  returns 0x01 (0000ms, 0652ms total)
T1664 005:075 JLINK_ReadMemU32(0xE0001058, 0x0001 Items, ...) -- CPU_ReadMem(4 bytes @ 0xE0001058) - Data: 00 00 00 00  returns 0x01 (0001ms, 0653ms total)
T1664 005:076 JLINK_ReadReg(R0)  returns 0x00000001 (0000ms, 0653ms total)
T1664 005:076 JLINK_ReadReg(R1)  returns 0x000000C8 (0000ms, 0653ms total)
T1664 005:076 JLINK_ReadReg(R2)  returns 0x00000000 (0000ms, 0653ms total)
T1664 005:076 JLINK_ReadReg(R3)  returns 0x00000009 (0000ms, 0653ms total)
T1664 005:076 JLINK_ReadReg(R4)  returns 0x08002D78 (0000ms, 0653ms total)
T1664 005:076 JLINK_ReadReg(R5)  returns 0x08002D78 (0000ms, 0653ms total)
T1664 005:076 JLINK_ReadReg(R6)  returns 0x00000000 (0000ms, 0653ms total)
T1664 005:076 JLINK_ReadReg(R7)  returns 0x00000000 (0000ms, 0653ms total)
T1664 005:076 JLINK_ReadReg(R8)  returns 0x00000000 (0000ms, 0653ms total)
T1664 005:076 JLINK_ReadReg(R9)  returns 0x00000000 (0000ms, 0653ms total)
T1664 005:076 JLINK_ReadReg(R10)  returns 0x00000000 (0000ms, 0653ms total)
T1664 005:076 JLINK_ReadReg(R11)  returns 0x00000000 (0000ms, 0653ms total)
T1664 005:076 JLINK_ReadReg(R12)  returns 0x00000000 (0000ms, 0653ms total)
T1664 005:076 JLINK_ReadReg(R13 (SP))  returns 0x20000C78 (0000ms, 0653ms total)
T1664 005:076 JLINK_ReadReg(R14)  returns 0x08002B7B (0000ms, 0653ms total)
T1664 005:076 JLINK_ReadReg(R15 (PC))  returns 0x08002AB0 (0000ms, 0653ms total)
T1664 005:076 JLINK_ReadReg(XPSR)  returns 0x21000000 (0000ms, 0653ms total)
T1664 005:076 JLINK_ReadReg(MSP)  returns 0x20000C78 (0000ms, 0653ms total)
T1664 005:076 JLINK_ReadReg(PSP)  returns 0x00000000 (0000ms, 0653ms total)
T1664 005:076 JLINK_ReadReg(CFBP)  returns 0x00000000 (0000ms, 0653ms total)
T1664 005:076 JLINK_ReadReg(FPSCR)  returns 0x00000000 (0004ms, 0657ms total)
T1664 005:080 JLINK_ReadReg(FPS0)  returns 0x00000000 (0000ms, 0657ms total)
T1664 005:080 JLINK_ReadReg(FPS1)  returns 0x00000000 (0000ms, 0657ms total)
T1664 005:080 JLINK_ReadReg(FPS2)  returns 0x00000000 (0000ms, 0657ms total)
T1664 005:080 JLINK_ReadReg(FPS3)  returns 0x00000000 (0000ms, 0657ms total)
T1664 005:080 JLINK_ReadReg(FPS4)  returns 0x00000000 (0000ms, 0657ms total)
T1664 005:080 JLINK_ReadReg(FPS5)  returns 0x00000000 (0000ms, 0657ms total)
T1664 005:080 JLINK_ReadReg(FPS6)  returns 0x00000000 (0000ms, 0657ms total)
T1664 005:080 JLINK_ReadReg(FPS7)  returns 0x00000000 (0000ms, 0657ms total)
T1664 005:080 JLINK_ReadReg(FPS8)  returns 0x00000000 (0000ms, 0657ms total)
T1664 005:080 JLINK_ReadReg(FPS9)  returns 0x00000000 (0000ms, 0657ms total)
T1664 005:080 JLINK_ReadReg(FPS10)  returns 0x00000000 (0000ms, 0657ms total)
T1664 005:080 JLINK_ReadReg(FPS11)  returns 0x00000000 (0000ms, 0657ms total)
T1664 005:080 JLINK_ReadReg(FPS12)  returns 0x00000000 (0000ms, 0657ms total)
T1664 005:080 JLINK_ReadReg(FPS13)  returns 0x00000000 (0000ms, 0657ms total)
T1664 005:080 JLINK_ReadReg(FPS14)  returns 0x00000000 (0000ms, 0657ms total)
T1664 005:080 JLINK_ReadReg(FPS15)  returns 0x00000000 (0000ms, 0657ms total)
T1664 005:080 JLINK_ReadReg(FPS16)  returns 0x00000000 (0000ms, 0657ms total)
T1664 005:080 JLINK_ReadReg(FPS17)  returns 0x00000000 (0000ms, 0657ms total)
T1664 005:080 JLINK_ReadReg(FPS18)  returns 0x00000000 (0000ms, 0657ms total)
T1664 005:080 JLINK_ReadReg(FPS19)  returns 0x00000000 (0000ms, 0657ms total)
T1664 005:080 JLINK_ReadReg(FPS20)  returns 0x00000000 (0000ms, 0657ms total)
T1664 005:080 JLINK_ReadReg(FPS21)  returns 0x00000000 (0000ms, 0657ms total)
T1664 005:080 JLINK_ReadReg(FPS22)  returns 0x00000000 (0000ms, 0657ms total)
T1664 005:080 JLINK_ReadReg(FPS23)  returns 0x00000000 (0000ms, 0657ms total)
T1664 005:080 JLINK_ReadReg(FPS24)  returns 0x00000000 (0000ms, 0657ms total)
T1664 005:080 JLINK_ReadReg(FPS25)  returns 0x00000000 (0000ms, 0657ms total)
T1664 005:080 JLINK_ReadReg(FPS26)  returns 0x00000000 (0000ms, 0657ms total)
T1664 005:080 JLINK_ReadReg(FPS27)  returns 0x00000000 (0000ms, 0657ms total)
T1664 005:080 JLINK_ReadReg(FPS28)  returns 0x00000000 (0000ms, 0657ms total)
T1664 005:080 JLINK_ReadReg(FPS29)  returns 0x00000000 (0000ms, 0657ms total)
T1664 005:080 JLINK_ReadReg(FPS30)  returns 0x00000000 (0000ms, 0657ms total)
T1664 005:080 JLINK_ReadReg(FPS31)  returns 0x00000000 (0000ms, 0657ms total)
T1418 005:080 JLINK_ReadMem (0x20000C7C, 0x0004 Bytes, ...) -- CPU_ReadMem(64 bytes @ 0x20000C40) -- Updating C cache (64 bytes @ 0x20000C40) -- Read from C cache (4 bytes @ 0x20000C7C) - Data: 31 02 00 08  returns 0x00 (0001ms, 0658ms total)
T1418 005:081 JLINK_ReadMem (0x20000C78, 0x0004 Bytes, ...) -- Read from C cache (4 bytes @ 0x20000C78) - Data: 21 43 65 87  returns 0x00 (0000ms, 0658ms total)
T1418 005:081 JLINK_ReadMemU32(0xE0001004, 0x0001 Items, ...) -- CPU_ReadMem(4 bytes @ 0xE0001004) - Data: A7 C8 49 01  returns 0x01 (0000ms, 0658ms total)
T1664 005:560 JLINK_Step() -- CPU_ReadMem(64 bytes @ 0x08002A80) -- Updating C cache (64 bytes @ 0x08002A80) -- Read from C cache (2 bytes @ 0x08002AB0) -- Simulated  returns 0x00 (0001ms, 0659ms total)
T1664 005:561 JLINK_ReadReg(R15 (PC))  returns 0x08002AB2 (0000ms, 0659ms total)
T1664 005:561 JLINK_ReadReg(XPSR)  returns 0x21000000 (0000ms, 0659ms total)
T1664 005:561 JLINK_SetBPEx(Addr = 0x08002AB0, Type = 0xFFFFFFF2)  returns 0x00000006 (0000ms, 0659ms total)
T1664 005:561 JLINK_Go() -- CPU_WriteMem(4 bytes @ 0xE0002000) -- CPU_ReadMem(4 bytes @ 0xE0001000) -- CPU_WriteMem(4 bytes @ 0xE0001004) (0002ms, 0661ms total)
T1664 005:664 JLINK_IsHalted()  returns TRUE (0002ms, 0663ms total)
T1664 005:666 JLINK_Halt()  returns 0x00 (0000ms, 0661ms total)
T1664 005:666 JLINK_IsHalted()  returns TRUE (0000ms, 0661ms total)
T1664 005:666 JLINK_IsHalted()  returns TRUE (0000ms, 0661ms total)
T1664 005:666 JLINK_IsHalted()  returns TRUE (0000ms, 0661ms total)
T1664 005:666 JLINK_ReadReg(R15 (PC))  returns 0x08002AB0 (0000ms, 0661ms total)
T1664 005:666 JLINK_ReadReg(XPSR)  returns 0x21000000 (0000ms, 0661ms total)
T1664 005:666 JLINK_ClrBPEx(BPHandle = 0x00000006)  returns 0x00 (0000ms, 0661ms total)
T1664 005:666 JLINK_ReadMemU32(0xE000ED30, 0x0001 Items, ...) -- CPU_ReadMem(4 bytes @ 0xE000ED30) - Data: 03 00 00 00  returns 0x01 (0001ms, 0662ms total)
T1664 005:667 JLINK_ReadMemU32(0xE0001028, 0x0001 Items, ...) -- CPU_ReadMem(4 bytes @ 0xE0001028) - Data: 00 00 00 00  returns 0x01 (0000ms, 0662ms total)
T1664 005:667 JLINK_ReadMemU32(0xE0001038, 0x0001 Items, ...) -- CPU_ReadMem(4 bytes @ 0xE0001038) - Data: 00 02 00 00  returns 0x01 (0000ms, 0662ms total)
T1664 005:667 JLINK_ReadMemU32(0xE0001048, 0x0001 Items, ...) -- CPU_ReadMem(4 bytes @ 0xE0001048) - Data: 00 00 00 00  returns 0x01 (0001ms, 0663ms total)
T1664 005:668 JLINK_ReadMemU32(0xE0001058, 0x0001 Items, ...) -- CPU_ReadMem(4 bytes @ 0xE0001058) - Data: 00 00 00 00  returns 0x01 (0000ms, 0663ms total)
T1664 005:668 JLINK_ReadReg(R0)  returns 0x00000001 (0000ms, 0663ms total)
T1664 005:668 JLINK_ReadReg(R1)  returns 0x0000012C (0000ms, 0663ms total)
T1664 005:668 JLINK_ReadReg(R2)  returns 0x00000000 (0000ms, 0663ms total)
T1664 005:668 JLINK_ReadReg(R3)  returns 0x00000009 (0000ms, 0663ms total)
T1664 005:668 JLINK_ReadReg(R4)  returns 0x08002D78 (0000ms, 0663ms total)
T1664 005:668 JLINK_ReadReg(R5)  returns 0x08002D78 (0000ms, 0663ms total)
T1664 005:668 JLINK_ReadReg(R6)  returns 0x00000000 (0000ms, 0663ms total)
T1664 005:668 JLINK_ReadReg(R7)  returns 0x00000000 (0000ms, 0663ms total)
T1664 005:668 JLINK_ReadReg(R8)  returns 0x00000000 (0000ms, 0663ms total)
T1664 005:668 JLINK_ReadReg(R9)  returns 0x00000000 (0000ms, 0663ms total)
T1664 005:668 JLINK_ReadReg(R10)  returns 0x00000000 (0000ms, 0663ms total)
T1664 005:668 JLINK_ReadReg(R11)  returns 0x00000000 (0000ms, 0663ms total)
T1664 005:669 JLINK_ReadReg(R12)  returns 0x00000000 (0000ms, 0663ms total)
T1664 005:669 JLINK_ReadReg(R13 (SP))  returns 0x20000C78 (0000ms, 0663ms total)
T1664 005:669 JLINK_ReadReg(R14)  returns 0x08002B7B (0000ms, 0663ms total)
T1664 005:669 JLINK_ReadReg(R15 (PC))  returns 0x08002AB0 (0000ms, 0663ms total)
T1664 005:669 JLINK_ReadReg(XPSR)  returns 0x21000000 (0000ms, 0663ms total)
T1664 005:669 JLINK_ReadReg(MSP)  returns 0x20000C78 (0000ms, 0663ms total)
T1664 005:669 JLINK_ReadReg(PSP)  returns 0x00000000 (0000ms, 0663ms total)
T1664 005:669 JLINK_ReadReg(CFBP)  returns 0x00000000 (0000ms, 0663ms total)
T1664 005:669 JLINK_ReadReg(FPSCR)  returns 0x00000000 (0003ms, 0666ms total)
T1664 005:672 JLINK_ReadReg(FPS0)  returns 0x00000000 (0000ms, 0666ms total)
T1664 005:672 JLINK_ReadReg(FPS1)  returns 0x00000000 (0000ms, 0666ms total)
T1664 005:672 JLINK_ReadReg(FPS2)  returns 0x00000000 (0000ms, 0666ms total)
T1664 005:672 JLINK_ReadReg(FPS3)  returns 0x00000000 (0000ms, 0666ms total)
T1664 005:672 JLINK_ReadReg(FPS4)  returns 0x00000000 (0000ms, 0666ms total)
T1664 005:672 JLINK_ReadReg(FPS5)  returns 0x00000000 (0000ms, 0666ms total)
T1664 005:672 JLINK_ReadReg(FPS6)  returns 0x00000000 (0000ms, 0666ms total)
T1664 005:672 JLINK_ReadReg(FPS7)  returns 0x00000000 (0000ms, 0666ms total)
T1664 005:672 JLINK_ReadReg(FPS8)  returns 0x00000000 (0000ms, 0666ms total)
T1664 005:672 JLINK_ReadReg(FPS9)  returns 0x00000000 (0000ms, 0666ms total)
T1664 005:672 JLINK_ReadReg(FPS10)  returns 0x00000000 (0000ms, 0666ms total)
T1664 005:672 JLINK_ReadReg(FPS11)  returns 0x00000000 (0000ms, 0666ms total)
T1664 005:672 JLINK_ReadReg(FPS12)  returns 0x00000000 (0000ms, 0666ms total)
T1664 005:672 JLINK_ReadReg(FPS13)  returns 0x00000000 (0000ms, 0666ms total)
T1664 005:672 JLINK_ReadReg(FPS14)  returns 0x00000000 (0000ms, 0666ms total)
T1664 005:672 JLINK_ReadReg(FPS15)  returns 0x00000000 (0000ms, 0666ms total)
T1664 005:672 JLINK_ReadReg(FPS16)  returns 0x00000000 (0000ms, 0666ms total)
T1664 005:672 JLINK_ReadReg(FPS17)  returns 0x00000000 (0000ms, 0666ms total)
T1664 005:672 JLINK_ReadReg(FPS18)  returns 0x00000000 (0000ms, 0666ms total)
T1664 005:672 JLINK_ReadReg(FPS19)  returns 0x00000000 (0000ms, 0666ms total)
T1664 005:672 JLINK_ReadReg(FPS20)  returns 0x00000000 (0000ms, 0666ms total)
T1664 005:672 JLINK_ReadReg(FPS21)  returns 0x00000000 (0000ms, 0666ms total)
T1664 005:672 JLINK_ReadReg(FPS22)  returns 0x00000000 (0000ms, 0666ms total)
T1664 005:672 JLINK_ReadReg(FPS23)  returns 0x00000000 (0000ms, 0666ms total)
T1664 005:672 JLINK_ReadReg(FPS24)  returns 0x00000000 (0000ms, 0666ms total)
T1664 005:672 JLINK_ReadReg(FPS25)  returns 0x00000000 (0000ms, 0666ms total)
T1664 005:672 JLINK_ReadReg(FPS26)  returns 0x00000000 (0000ms, 0666ms total)
T1664 005:672 JLINK_ReadReg(FPS27)  returns 0x00000000 (0000ms, 0666ms total)
T1664 005:672 JLINK_ReadReg(FPS28)  returns 0x00000000 (0000ms, 0666ms total)
T1664 005:672 JLINK_ReadReg(FPS29)  returns 0x00000000 (0000ms, 0666ms total)
T1664 005:672 JLINK_ReadReg(FPS30)  returns 0x00000000 (0000ms, 0666ms total)
T1664 005:672 JLINK_ReadReg(FPS31)  returns 0x00000000 (0001ms, 0667ms total)
T1418 005:673 JLINK_ReadMem (0x20000C7C, 0x0004 Bytes, ...) -- CPU_ReadMem(64 bytes @ 0x20000C40) -- Updating C cache (64 bytes @ 0x20000C40) -- Read from C cache (4 bytes @ 0x20000C7C) - Data: 31 02 00 08  returns 0x00 (0000ms, 0667ms total)
T1418 005:673 JLINK_ReadMem (0x20000C78, 0x0004 Bytes, ...) -- Read from C cache (4 bytes @ 0x20000C78) - Data: 21 43 65 87  returns 0x00 (0000ms, 0667ms total)
T1418 005:674 JLINK_ReadMemU32(0xE0001004, 0x0001 Items, ...) -- CPU_ReadMem(4 bytes @ 0xE0001004) - Data: FA A4 B7 01  returns 0x01 (0000ms, 0667ms total)
T1664 006:160 JLINK_Step() -- CPU_ReadMem(64 bytes @ 0x08002A80) -- Updating C cache (64 bytes @ 0x08002A80) -- Read from C cache (2 bytes @ 0x08002AB0) -- Simulated  returns 0x00 (0001ms, 0668ms total)
T1664 006:161 JLINK_ReadReg(R15 (PC))  returns 0x08002AB2 (0000ms, 0668ms total)
T1664 006:161 JLINK_ReadReg(XPSR)  returns 0x21000000 (0000ms, 0668ms total)
T1664 006:161 JLINK_SetBPEx(Addr = 0x08002AB0, Type = 0xFFFFFFF2)  returns 0x00000007 (0000ms, 0668ms total)
T1664 006:161 JLINK_Go() -- CPU_WriteMem(4 bytes @ 0xE0002000) -- CPU_ReadMem(4 bytes @ 0xE0001000) -- CPU_WriteMem(4 bytes @ 0xE0001004) (0002ms, 0670ms total)
T1664 006:264 JLINK_IsHalted()  returns TRUE (0002ms, 0672ms total)
T1664 006:266 JLINK_Halt()  returns 0x00 (0000ms, 0670ms total)
T1664 006:266 JLINK_IsHalted()  returns TRUE (0000ms, 0670ms total)
T1664 006:266 JLINK_IsHalted()  returns TRUE (0000ms, 0670ms total)
T1664 006:266 JLINK_IsHalted()  returns TRUE (0000ms, 0670ms total)
T1664 006:266 JLINK_ReadReg(R15 (PC))  returns 0x08002AB0 (0000ms, 0670ms total)
T1664 006:266 JLINK_ReadReg(XPSR)  returns 0x21000000 (0000ms, 0670ms total)
T1664 006:266 JLINK_ClrBPEx(BPHandle = 0x00000007)  returns 0x00 (0000ms, 0670ms total)
T1664 006:266 JLINK_ReadMemU32(0xE000ED30, 0x0001 Items, ...) -- CPU_ReadMem(4 bytes @ 0xE000ED30) - Data: 03 00 00 00  returns 0x01 (0001ms, 0671ms total)
T1664 006:267 JLINK_ReadMemU32(0xE0001028, 0x0001 Items, ...) -- CPU_ReadMem(4 bytes @ 0xE0001028) - Data: 00 00 00 00  returns 0x01 (0000ms, 0671ms total)
T1664 006:267 JLINK_ReadMemU32(0xE0001038, 0x0001 Items, ...) -- CPU_ReadMem(4 bytes @ 0xE0001038) - Data: 00 02 00 00  returns 0x01 (0000ms, 0671ms total)
T1664 006:267 JLINK_ReadMemU32(0xE0001048, 0x0001 Items, ...) -- CPU_ReadMem(4 bytes @ 0xE0001048) - Data: 00 00 00 00  returns 0x01 (0001ms, 0672ms total)
T1664 006:268 JLINK_ReadMemU32(0xE0001058, 0x0001 Items, ...) -- CPU_ReadMem(4 bytes @ 0xE0001058) - Data: 00 00 00 00  returns 0x01 (0000ms, 0672ms total)
T1664 006:268 JLINK_ReadReg(R0)  returns 0x00000001 (0000ms, 0672ms total)
T1664 006:268 JLINK_ReadReg(R1)  returns 0x00000190 (0000ms, 0672ms total)
T1664 006:268 JLINK_ReadReg(R2)  returns 0x00000000 (0000ms, 0672ms total)
T1664 006:268 JLINK_ReadReg(R3)  returns 0x00000009 (0000ms, 0672ms total)
T1664 006:268 JLINK_ReadReg(R4)  returns 0x08002D78 (0000ms, 0672ms total)
T1664 006:268 JLINK_ReadReg(R5)  returns 0x08002D78 (0000ms, 0672ms total)
T1664 006:268 JLINK_ReadReg(R6)  returns 0x00000000 (0000ms, 0672ms total)
T1664 006:268 JLINK_ReadReg(R7)  returns 0x00000000 (0000ms, 0672ms total)
T1664 006:268 JLINK_ReadReg(R8)  returns 0x00000000 (0000ms, 0672ms total)
T1664 006:268 JLINK_ReadReg(R9)  returns 0x00000000 (0000ms, 0672ms total)
T1664 006:268 JLINK_ReadReg(R10)  returns 0x00000000 (0000ms, 0672ms total)
T1664 006:268 JLINK_ReadReg(R11)  returns 0x00000000 (0000ms, 0672ms total)
T1664 006:268 JLINK_ReadReg(R12)  returns 0x00000000 (0000ms, 0672ms total)
T1664 006:268 JLINK_ReadReg(R13 (SP))  returns 0x20000C78 (0000ms, 0672ms total)
T1664 006:268 JLINK_ReadReg(R14)  returns 0x08002B7B (0000ms, 0672ms total)
T1664 006:268 JLINK_ReadReg(R15 (PC))  returns 0x08002AB0 (0000ms, 0672ms total)
T1664 006:268 JLINK_ReadReg(XPSR)  returns 0x21000000 (0000ms, 0672ms total)
T1664 006:268 JLINK_ReadReg(MSP)  returns 0x20000C78 (0000ms, 0672ms total)
T1664 006:268 JLINK_ReadReg(PSP)  returns 0x00000000 (0000ms, 0672ms total)
T1664 006:268 JLINK_ReadReg(CFBP)  returns 0x00000000 (0000ms, 0672ms total)
T1664 006:268 JLINK_ReadReg(FPSCR)  returns 0x00000000 (0004ms, 0676ms total)
T1664 006:272 JLINK_ReadReg(FPS0)  returns 0x00000000 (0000ms, 0676ms total)
T1664 006:272 JLINK_ReadReg(FPS1)  returns 0x00000000 (0000ms, 0676ms total)
T1664 006:272 JLINK_ReadReg(FPS2)  returns 0x00000000 (0000ms, 0676ms total)
T1664 006:272 JLINK_ReadReg(FPS3)  returns 0x00000000 (0000ms, 0676ms total)
T1664 006:272 JLINK_ReadReg(FPS4)  returns 0x00000000 (0000ms, 0676ms total)
T1664 006:272 JLINK_ReadReg(FPS5)  returns 0x00000000 (0000ms, 0676ms total)
T1664 006:272 JLINK_ReadReg(FPS6)  returns 0x00000000 (0000ms, 0676ms total)
T1664 006:272 JLINK_ReadReg(FPS7)  returns 0x00000000 (0000ms, 0676ms total)
T1664 006:272 JLINK_ReadReg(FPS8)  returns 0x00000000 (0000ms, 0676ms total)
T1664 006:272 JLINK_ReadReg(FPS9)  returns 0x00000000 (0000ms, 0676ms total)
T1664 006:272 JLINK_ReadReg(FPS10)  returns 0x00000000 (0000ms, 0676ms total)
T1664 006:272 JLINK_ReadReg(FPS11)  returns 0x00000000 (0000ms, 0676ms total)
T1664 006:272 JLINK_ReadReg(FPS12)  returns 0x00000000 (0000ms, 0676ms total)
T1664 006:272 JLINK_ReadReg(FPS13)  returns 0x00000000 (0000ms, 0676ms total)
T1664 006:272 JLINK_ReadReg(FPS14)  returns 0x00000000 (0000ms, 0676ms total)
T1664 006:272 JLINK_ReadReg(FPS15)  returns 0x00000000 (0000ms, 0676ms total)
T1664 006:272 JLINK_ReadReg(FPS16)  returns 0x00000000 (0000ms, 0676ms total)
T1664 006:272 JLINK_ReadReg(FPS17)  returns 0x00000000 (0000ms, 0676ms total)
T1664 006:272 JLINK_ReadReg(FPS18)  returns 0x00000000 (0000ms, 0676ms total)
T1664 006:272 JLINK_ReadReg(FPS19)  returns 0x00000000 (0000ms, 0676ms total)
T1664 006:272 JLINK_ReadReg(FPS20)  returns 0x00000000 (0000ms, 0676ms total)
